
T1B58 000:048 SEGGER J-Link V5.12f Log File (0001ms, 0030ms total)
T1B58 000:048 DLL Compiled: May 17 2016 16:03:35 (0001ms, 0030ms total)
T1B58 000:048 Logging started @ 2016-09-28 16:28 (0001ms, 0030ms total)
T1B58 000:049 JLINK_SetWarnOutHandler(...) (0000ms, 0030ms total)
T1B58 000:049 JLINK_OpenEx(...)
Firmware: J-Link OB-SAM3U128-V2-NordicSemi compiled Jul  5 2016 08:42:09
Hardware: V1.00
S/N: 682689725  returns O.K. (0013ms, 0043ms total)
T1B58 000:062 JLINK_SetErrorOutHandler(...) (0000ms, 0043ms total)
T1B58 000:062 JLINK_ExecCommand("ProjectFile = "C:\Users\haho\Documents\nRF_SDK\nRF5_SDK_12\examples\peripheral\wiegand\pca10040\blank\arm5_no_packs\JLinkSettings.ini"", ...)  returns 0x00 (0000ms, 0043ms total)
T1B58 000:062 JLINK_ExecCommand("Device = nRF52832_xxAA", ...)Device "NRF52832_XXAA" selected.  returns 0x00 (0001ms, 0044ms total)
T1B58 000:063 JLINK_ExecCommand("DisableConnectionTimeout", ...)  returns 0x01 (0000ms, 0044ms total)
T1B58 000:063 JLINK_GetHardwareVersion()  returns 0x2710 (0000ms, 0044ms total)
T1B58 000:063 JLINK_GetDLLVersion()  returns 51206 (0000ms, 0044ms total)
T1B58 000:063 JLINK_GetFirmwareString(...) (0000ms, 0044ms total)
T1B58 000:063 JLINK_GetDLLVersion()  returns 51206 (0000ms, 0044ms total)
T1B58 000:063 JLINK_GetCompileDateTime() (0000ms, 0044ms total)
T1B58 000:063 JLINK_GetFirmwareString(...) (0000ms, 0044ms total)
T1B58 000:063 JLINK_GetHardwareVersion()  returns 0x2710 (0000ms, 0044ms total)
T1B58 000:063 JLINK_TIF_Select(JLINKARM_TIF_SWD)  returns 0x00 (0002ms, 0046ms total)
T1B58 000:065 JLINK_SetSpeed(5000) (0000ms, 0046ms total)
T1B58 000:065 JLINK_GetId() >0x108 TIF>Found SWD-DP with ID 0x2BA01477 >0x0D TIF> >0x28 TIF> >0x0D TIF> >0x28 TIF> >0x0D TIF> >0x28 TIF> >0x0D TIF> >0x28 TIF> >0x35 TIF> >0x0D TIF> >0x28 TIF> >0x0D TIF> >0x28 TIF> >0x35 TIF> >0x35 TIF> >0x35 TIF> >0x0D TIF> >0x28 TIF> >0x0D TIF> >0x28 TIF> >0x0D TIF> >0x28 TIF> >0x35 TIF> >0x35 TIF> >0x0D TIF> >0x28 TIF> >0x35 TIF> >0x35 TIF>Found Cortex-M4 r0p1, Little endian. -- CPU_ReadMem(4 bytes @ 0xE000EDF0) -- CPU_ReadMem(4 bytes @ 0xE0002000)
FPUnit: 6 code (BP) slots and 2 literal slots -- CPU_ReadMem(4 bytes @ 0xE000EDFC) -- CPU_ReadMem(4 bytes @ 0xE0001000) -- CPU_WriteMem(4 bytes @ 0xE0001000) -- CPU_ReadMem(4 bytes @ 0xE000ED88) -- CPU_WriteMem(4 bytes @ 0xE000ED88) -- CPU_ReadMem(4 bytes @ 0xE000ED88) -- CPU_WriteMem(4 bytes @ 0xE000ED88)CoreSight components:ROMTbl 0 @ E00FF000 -- CPU_ReadMem(16 bytes @ 0xE00FF000) -- CPU_ReadMem(16 bytes @ 0xE000EFF0) -- CPU_ReadMem(16 bytes @ 0xE000EFE0)
ROMTbl 0 [0]: FFF0F000, CID: B105E00D, PID: 000BB00C SCS -- CPU_ReadMem(16 bytes @ 0xE0001FF0) -- CPU_ReadMem(16 bytes @ 0xE0001FE0)ROMTbl 0 [1]: FFF02000, CID: B105E00D, PID: 003BB002 DWT -- CPU_ReadMem(16 bytes @ 0xE0002FF0) -- CPU_ReadMem(16 bytes @ 0xE0002FE0)ROMTbl 0 [2]: FFF03000, CID: B105E00D, PID: 002BB003 FPB -- CPU_ReadMem(16 bytes @ 0xE0000FF0) -- CPU_ReadMem(16 bytes @ 0xE0000FE0)ROMTbl 0 [3]: FFF01000, CID: B105E00D, PID: 003BB001 ITM -- CPU_ReadMem(16 bytes @ 0xE00FF010)
 -- CPU_ReadMem(16 bytes @ 0xE0040FF0) -- CPU_ReadMem(16 bytes @ 0xE0040FE0)ROMTbl 0 [4]: FFF41000, CID: B105900D, PID: 000BB9A1 TPIU -- CPU_ReadMem(16 bytes @ 0xE0041FF0) -- CPU_ReadMem(16 bytes @ 0xE0041FE0)ROMTbl 0 [5]: FFF42000, CID: B105900D, PID: 000BB925 ETM >0x35 TIF>  returns 0x2BA01477 (0036ms, 0082ms total)
T1B58 000:101 JLINK_GetDLLVersion()  returns 51206 (0000ms, 0082ms total)
T1B58 000:101 JLINK_CORE_GetFound()  returns 0xE0000FF (0000ms, 0082ms total)
T1B58 000:101 JLINK_GetDebugInfo(0x100) -- Value=0xE00FF000  returns 0x00 (0000ms, 0082ms total)
T1B58 000:101 JLINK_GetDebugInfo(0x100) -- Value=0xE00FF000  returns 0x00 (0000ms, 0082ms total)
T1B58 000:101 JLINK_GetDebugInfo(0x101) -- Value=0xE0041000  returns 0x00 (0000ms, 0082ms total)
T1B58 000:101 JLINK_GetDebugInfo(0x102) -- Value=0x00000000  returns 0x00 (0000ms, 0082ms total)
T1B58 000:101 JLINK_GetDebugInfo(0x103) -- Value=0xE0040000  returns 0x00 (0000ms, 0082ms total)
T1B58 000:101 JLINK_GetDebugInfo(0x104) -- Value=0xE0000000  returns 0x00 (0000ms, 0082ms total)
T1B58 000:101 JLINK_GetDebugInfo(0x105) -- Value=0xE0001000  returns 0x00 (0000ms, 0082ms total)
T1B58 000:101 JLINK_GetDebugInfo(0x106) -- Value=0xE0002000  returns 0x00 (0000ms, 0082ms total)
T1B58 000:101 JLINK_GetDebugInfo(0x107) -- Value=0xE000E000  returns 0x00 (0000ms, 0082ms total)
T1B58 000:101 JLINK_GetDebugInfo(0x10C) -- Value=0xE000EDF0  returns 0x00 (0000ms, 0082ms total)
T1B58 000:101 JLINK_ReadMemU32(0xE000EF40, 0x0001 Items, ...) -- CPU is running -- CPU_ReadMem(4 bytes @ 0xE000EF40) - Data: 21 00 11 10  returns 0x01 (0001ms, 0083ms total)
T1B58 000:102 JLINK_ReadMemU32(0xE000EF44, 0x0001 Items, ...) -- CPU is running -- CPU_ReadMem(4 bytes @ 0xE000EF44) - Data: 11 00 00 11  returns 0x01 (0001ms, 0084ms total)
T1B58 000:103 JLINK_ReadMemU32(0xE000ED00, 0x0001 Items, ...) -- CPU is running -- CPU_ReadMem(4 bytes @ 0xE000ED00) - Data: 41 C2 0F 41  returns 0x01 (0001ms, 0085ms total)
T1B58 000:104 JLINK_SetResetType(JLINKARM_RESET_TYPE_NORMAL)  returns JLINKARM_RESET_TYPE_NORMAL (0000ms, 0085ms total)
T1B58 000:104 JLINK_Reset() -- CPU is running -- CPU_WriteMem(4 bytes @ 0xE000EDF0) -- CPU is running -- CPU_WriteMem(4 bytes @ 0xE000EDFC) >0x35 TIF> -- CPU is running -- CPU_WriteMem(4 bytes @ 0xE000ED0C) -- CPU is running -- CPU_ReadMem(4 bytes @ 0xE000EDF0) -- CPU is running -- CPU_ReadMem(4 bytes @ 0xE000EDF0) -- CPU is running -- CPU_WriteMem(4 bytes @ 0xE000EDF0) -- CPU is running -- CPU_WriteMem(4 bytes @ 0xE000EDFC) -- CPU is running -- CPU_ReadMem(4 bytes @ 0xE000EDF0)
 -- CPU_WriteMem(4 bytes @ 0xE0002000) -- CPU_ReadMem(4 bytes @ 0xE000EDFC) -- CPU_ReadMem(4 bytes @ 0xE0001000) (0028ms, 0113ms total)
T1B58 000:132 JLINK_ReadReg(R15 (PC))  returns 0x00000414 (0000ms, 0113ms total)
T1B58 000:132 JLINK_ReadReg(XPSR)  returns 0x01000000 (0000ms, 0113ms total)
T1B58 000:132 JLINK_Halt()  returns 0x00 (0000ms, 0113ms total)
T1B58 000:132 JLINK_IsHalted()  returns TRUE (0000ms, 0113ms total)
T1B58 000:132 JLINK_ReadMemU32(0xE000EDF0, 0x0001 Items, ...) -- CPU_ReadMem(4 bytes @ 0xE000EDF0) - Data: 03 00 03 00  returns 0x01 (0001ms, 0114ms total)
T1B58 000:133 JLINK_WriteU32(0xE000EDF0, 0xA05F0003) -- CPU_WriteMem(4 bytes @ 0xE000EDF0)  returns 0x00 (0001ms, 0115ms total)
T1B58 000:134 JLINK_WriteU32(0xE000EDFC, 0x01000000) -- CPU_WriteMem(4 bytes @ 0xE000EDFC)  returns 0x00 (0001ms, 0116ms total)
T1B58 000:135 JLINK_GetHWStatus(...)  returns 0x00 (0000ms, 0116ms total)
T1B58 000:135 JLINK_GetNumBPUnits(Type = 0xFFFFFF00)  returns 0x06 (0000ms, 0116ms total)
T1B58 000:135 JLINK_GetNumBPUnits(Type = 0xF0)  returns 0x2000 (0000ms, 0116ms total)
T1B58 000:135 JLINK_GetNumWPUnits()  returns 0x04 (0000ms, 0116ms total)
T1B58 000:135 JLINK_GetSpeed()  returns 0x3E8 (0000ms, 0116ms total)
T1B58 000:135 JLINK_ReadMemU32(0xE000E004, 0x0001 Items, ...) -- CPU_ReadMem(4 bytes @ 0xE000E004) - Data: 01 00 00 00  returns 0x01 (0001ms, 0117ms total)
T1B58 000:136 JLINK_ReadMemU32(0xE000E004, 0x0001 Items, ...) -- CPU_ReadMem(4 bytes @ 0xE000E004) - Data: 01 00 00 00  returns 0x01 (0001ms, 0118ms total)
T1B58 000:137 JLINK_WriteMem(0xE0001000, 0x001C Bytes, ...) - Data: 01 00 00 00 00 00 00 00 00 00 00 00 00 00 00 00 ... -- CPU_WriteMem(28 bytes @ 0xE0001000)  returns 0x1C (0002ms, 0120ms total)
T1B58 000:139 JLINK_ReadMem (0xE0001000, 0x001C Bytes, ...) -- CPU_ReadMem(28 bytes @ 0xE0001000) - Data: 01 00 00 40 00 00 00 00 00 00 00 00 00 00 00 00 ...  returns 0x00 (0001ms, 0121ms total)
T1B58 000:140 JLINK_ReadReg(R15 (PC))  returns 0x00000414 (0000ms, 0121ms total)
T1B58 000:140 JLINK_ReadReg(XPSR)  returns 0x01000000 (0000ms, 0121ms total)
T1B58 000:210 JLINK_SetResetType(JLINKARM_RESET_TYPE_NORMAL)  returns JLINKARM_RESET_TYPE_NORMAL (0000ms, 0121ms total)
T1B58 000:210 JLINK_Reset() -- CPU_WriteMem(4 bytes @ 0xE000EDF0) -- CPU_WriteMem(4 bytes @ 0xE000EDFC) >0x35 TIF> -- CPU_WriteMem(4 bytes @ 0xE000ED0C) -- CPU_ReadMem(4 bytes @ 0xE000EDF0) -- CPU_ReadMem(4 bytes @ 0xE000EDF0) -- CPU_WriteMem(4 bytes @ 0xE000EDF0) -- CPU_WriteMem(4 bytes @ 0xE000EDFC) -- CPU is running -- CPU_ReadMem(4 bytes @ 0xE000EDF0) -- CPU_WriteMem(4 bytes @ 0xE0002000) -- CPU_ReadMem(4 bytes @ 0xE000EDFC) -- CPU_ReadMem(4 bytes @ 0xE0001000) (0025ms, 0146ms total)
T1B58 000:235 JLINK_ReadReg(R15 (PC))  returns 0x00000414 (0000ms, 0146ms total)
T1B58 000:235 JLINK_ReadReg(XPSR)  returns 0x01000000 (0001ms, 0147ms total)
T1B58 000:236 JLINK_ReadMem (0x00000414, 0x003C Bytes, ...) -- CPU_ReadMem(128 bytes @ 0x00000400) -- Updating C cache (128 bytes @ 0x00000400) -- Read from C cache (60 bytes @ 0x00000414) - Data: 06 48 80 47 06 48 00 47 FE E7 FE E7 FE E7 FE E7 ...  returns 0x00 (0003ms, 0150ms total)
T1B58 000:342 JLINK_ReadMem (0x40008000, 0x0010 Bytes, ...) -- CPU_ReadMem(16 bytes @ 0x40008000) - Data: 00 00 00 00 00 00 00 00 00 00 00 00 00 00 00 00  returns 0x00 (0001ms, 0151ms total)
T1B58 000:343 JLINK_ReadMem (0x40008010, 0x0004 Bytes, ...) -- CPU_ReadMem(4 bytes @ 0x40008010) - Data: 00 00 00 00  returns 0x00 (0001ms, 0152ms total)
T1B58 000:344 JLINK_ReadMem (0x40008040, 0x0014 Bytes, ...) -- CPU_ReadMem(20 bytes @ 0x40008040) - Data: 00 00 00 00 00 00 00 00 00 00 00 00 00 00 00 00 ...  returns 0x00 (0001ms, 0153ms total)
T1B58 000:345 JLINK_ReadMem (0x40008054, 0x0004 Bytes, ...) -- CPU_ReadMem(4 bytes @ 0x40008054) - Data: 00 00 00 00  returns 0x00 (0001ms, 0154ms total)
T1B58 000:346 JLINK_ReadMem (0x40008140, 0x0014 Bytes, ...) -- CPU_ReadMem(20 bytes @ 0x40008140) - Data: 00 00 00 00 00 00 00 00 00 00 00 00 00 00 00 00 ...  returns 0x00 (0001ms, 0155ms total)
T1B58 000:347 JLINK_ReadMem (0x40008154, 0x0004 Bytes, ...) -- CPU_ReadMem(4 bytes @ 0x40008154) - Data: 00 00 00 00  returns 0x00 (0000ms, 0155ms total)
T1B58 000:347 JLINK_ReadMem (0x40008200, 0x0004 Bytes, ...) -- CPU_ReadMem(4 bytes @ 0x40008200) - Data: 00 00 00 00  returns 0x00 (0001ms, 0156ms total)
T1B58 000:348 JLINK_ReadMem (0x40008304, 0x0004 Bytes, ...) -- CPU_ReadMem(4 bytes @ 0x40008304) - Data: 00 00 00 00  returns 0x00 (0001ms, 0157ms total)
T1B58 000:349 JLINK_ReadMem (0x40008308, 0x0004 Bytes, ...) -- CPU_ReadMem(4 bytes @ 0x40008308) - Data: 00 00 00 00  returns 0x00 (0001ms, 0158ms total)
T1B58 000:350 JLINK_ReadMem (0x40008504, 0x0004 Bytes, ...) -- CPU_ReadMem(4 bytes @ 0x40008504) - Data: 00 00 00 00  returns 0x00 (0000ms, 0158ms total)
T1B58 000:350 JLINK_ReadMem (0x40008508, 0x0004 Bytes, ...) -- CPU_ReadMem(4 bytes @ 0x40008508) - Data: 00 00 00 00  returns 0x00 (0001ms, 0159ms total)
T1B58 000:351 JLINK_ReadMem (0x40008510, 0x0004 Bytes, ...) -- CPU_ReadMem(4 bytes @ 0x40008510) - Data: 04 00 00 00  returns 0x00 (0001ms, 0160ms total)
T1B58 000:352 JLINK_ReadMem (0x40008540, 0x0014 Bytes, ...) -- CPU_ReadMem(20 bytes @ 0x40008540) - Data: 00 00 00 00 00 00 00 00 00 00 00 00 00 00 00 00 ...  returns 0x00 (0001ms, 0161ms total)
T1B58 000:353 JLINK_ReadMem (0x40008554, 0x0004 Bytes, ...) -- CPU_ReadMem(4 bytes @ 0x40008554) - Data: 00 00 00 00  returns 0x00 (0001ms, 0162ms total)
T1B58 001:992 JLINK_ReadMem (0x20000000, 0x0001 Bytes, ...) -- CPU_ReadMem(64 bytes @ 0x20000000) -- Updating C cache (64 bytes @ 0x20000000) -- Read from C cache (1 bytes @ 0x20000000) - Data: 00  returns 0x00 (0002ms, 0164ms total)
T1B58 002:005 JLINK_ReadMem (0x20000007, 0x0001 Bytes, ...) -- Read from C cache (1 bytes @ 0x20000007) - Data: 00  returns 0x00 (0000ms, 0164ms total)
T1B58 002:009 JLINK_ReadMem (0x2000003C, 0x0004 Bytes, ...) -- Read from C cache (4 bytes @ 0x2000003C) - Data: F5 13 00 00  returns 0x00 (0000ms, 0164ms total)
T1B58 002:009 JLINK_ReadMem (0x000013F5, 0x000B Bytes, ...) -- CPU_ReadMem(64 bytes @ 0x000013C0) -- Updating C cache (64 bytes @ 0x000013C0) -- Read from C cache (11 bytes @ 0x000013F5) - Data: E9 F0 41 04 46 0F 46 4B 49 08 68  returns 0x00 (0002ms, 0166ms total)
T1B58 002:011 JLINK_ReadMem (0x00001400, 0x0015 Bytes, ...) -- CPU_ReadMem(64 bytes @ 0x00001400) -- Updating C cache (64 bytes @ 0x00001400) -- Read from C cache (21 bytes @ 0x00001400) - Data: 4B 49 09 68 C1 40 01 F0 01 01 09 B1 01 20 00 E0 ...  returns 0x00 (0001ms, 0167ms total)
T1B58 002:017 JLINK_ReadMem (0x20000001, 0x0001 Bytes, ...) -- Read from C cache (1 bytes @ 0x20000001) - Data: 00  returns 0x00 (0000ms, 0167ms total)
T47E8 002:036 JLINK_SetBPEx(Addr = 0x00000C80, Type = 0xFFFFFFF2)  returns 0x00000001 (0000ms, 0167ms total)
T47E8 002:036 JLINK_Go() -- CPU_WriteMem(4 bytes @ 0xE0002000) -- CPU_ReadMem(4 bytes @ 0xE0001000) -- CPU_WriteMem(4 bytes @ 0xE0002008) -- CPU_WriteMem(4 bytes @ 0xE000200C) -- CPU_WriteMem(4 bytes @ 0xE0002010) -- CPU_WriteMem(4 bytes @ 0xE0002014) -- CPU_WriteMem(4 bytes @ 0xE0002018) -- CPU_WriteMem(4 bytes @ 0xE000201C) -- CPU_WriteMem(4 bytes @ 0xE0001004) (0007ms, 0174ms total)
T47E8 002:143 JLINK_IsHalted()  returns TRUE (0010ms, 0184ms total)
T47E8 002:153 JLINK_Halt()  returns 0x00 (0000ms, 0174ms total)
T47E8 002:153 JLINK_IsHalted()  returns TRUE (0000ms, 0174ms total)
T47E8 002:153 JLINK_IsHalted()  returns TRUE (0000ms, 0174ms total)
T47E8 002:153 JLINK_IsHalted()  returns TRUE (0000ms, 0174ms total)
T47E8 002:153 JLINK_ReadReg(R15 (PC))  returns 0x00000C80 (0000ms, 0174ms total)
T47E8 002:153 JLINK_ReadReg(XPSR)  returns 0x61000000 (0000ms, 0174ms total)
T47E8 002:153 JLINK_ClrBPEx(BPHandle = 0x00000001)  returns 0x00 (0000ms, 0174ms total)
T47E8 002:153 JLINK_ReadMemU32(0xE000ED30, 0x0001 Items, ...) -- CPU_ReadMem(4 bytes @ 0xE000ED30) - Data: 02 00 00 00  returns 0x01 (0002ms, 0176ms total)
T47E8 002:155 JLINK_ReadMemU32(0xE0001028, 0x0001 Items, ...) -- CPU_ReadMem(4 bytes @ 0xE0001028) - Data: 00 00 00 00  returns 0x01 (0003ms, 0179ms total)
T47E8 002:158 JLINK_ReadMemU32(0xE0001038, 0x0001 Items, ...) -- CPU_ReadMem(4 bytes @ 0xE0001038) - Data: 00 02 00 00  returns 0x01 (0001ms, 0180ms total)
T47E8 002:159 JLINK_ReadMemU32(0xE0001048, 0x0001 Items, ...) -- CPU_ReadMem(4 bytes @ 0xE0001048) - Data: 00 00 00 00  returns 0x01 (0001ms, 0181ms total)
T47E8 002:160 JLINK_ReadMemU32(0xE0001058, 0x0001 Items, ...) -- CPU_ReadMem(4 bytes @ 0xE0001058) - Data: 00 00 00 00  returns 0x01 (0001ms, 0182ms total)
T47E8 002:161 JLINK_ReadReg(R0)  returns 0x00000C81 (0000ms, 0182ms total)
T47E8 002:161 JLINK_ReadReg(R1)  returns 0x200040A8 (0000ms, 0182ms total)
T47E8 002:161 JLINK_ReadReg(R2)  returns 0x00000000 (0000ms, 0182ms total)
T47E8 002:161 JLINK_ReadReg(R3)  returns 0x000008D9 (0000ms, 0182ms total)
T47E8 002:161 JLINK_ReadReg(R4)  returns 0x00001628 (0000ms, 0182ms total)
T47E8 002:161 JLINK_ReadReg(R5)  returns 0x00001628 (0001ms, 0183ms total)
T47E8 002:162 JLINK_ReadReg(R6)  returns 0x00000000 (0000ms, 0183ms total)
T47E8 002:162 JLINK_ReadReg(R7)  returns 0x00000000 (0000ms, 0183ms total)
T47E8 002:162 JLINK_ReadReg(R8)  returns 0x00000000 (0000ms, 0183ms total)
T47E8 002:162 JLINK_ReadReg(R9)  returns 0x00000000 (0000ms, 0183ms total)
T47E8 002:162 JLINK_ReadReg(R10)  returns 0x00000000 (0000ms, 0183ms total)
T47E8 002:162 JLINK_ReadReg(R11)  returns 0x00000000 (0000ms, 0183ms total)
T47E8 002:162 JLINK_ReadReg(R12)  returns 0x00000000 (0000ms, 0183ms total)
T47E8 002:162 JLINK_ReadReg(R13 (SP))  returns 0x200040A8 (0000ms, 0183ms total)
T47E8 002:162 JLINK_ReadReg(R14)  returns 0x00000479 (0000ms, 0183ms total)
T47E8 002:162 JLINK_ReadReg(R15 (PC))  returns 0x00000C80 (0000ms, 0183ms total)
T47E8 002:162 JLINK_ReadReg(XPSR)  returns 0x61000000 (0000ms, 0183ms total)
T47E8 002:162 JLINK_ReadReg(MSP)  returns 0x200040A8 (0000ms, 0183ms total)
T47E8 002:162 JLINK_ReadReg(PSP)  returns 0x00000000 (0000ms, 0183ms total)
T47E8 002:162 JLINK_ReadReg(CFBP)  returns 0x00000000 (0000ms, 0183ms total)
T47E8 002:162 JLINK_ReadReg(FPSCR)  returns 0x00000000 (0011ms, 0194ms total)
T47E8 002:173 JLINK_ReadReg(FPS0)  returns 0x00000000 (0000ms, 0194ms total)
T47E8 002:173 JLINK_ReadReg(FPS1)  returns 0x00000000 (0000ms, 0194ms total)
T47E8 002:173 JLINK_ReadReg(FPS2)  returns 0x00000000 (0000ms, 0194ms total)
T47E8 002:173 JLINK_ReadReg(FPS3)  returns 0x00000000 (0000ms, 0194ms total)
T47E8 002:173 JLINK_ReadReg(FPS4)  returns 0x00000000 (0000ms, 0194ms total)
T47E8 002:173 JLINK_ReadReg(FPS5)  returns 0x00000000 (0000ms, 0194ms total)
T47E8 002:173 JLINK_ReadReg(FPS6)  returns 0x00000000 (0001ms, 0195ms total)
T47E8 002:174 JLINK_ReadReg(FPS7)  returns 0x00000000 (0000ms, 0195ms total)
T47E8 002:174 JLINK_ReadReg(FPS8)  returns 0x00000000 (0000ms, 0195ms total)
T47E8 002:174 JLINK_ReadReg(FPS9)  returns 0x00000000 (0000ms, 0195ms total)
T47E8 002:174 JLINK_ReadReg(FPS10)  returns 0x00000000 (0000ms, 0195ms total)
T47E8 002:174 JLINK_ReadReg(FPS11)  returns 0x00000000 (0000ms, 0195ms total)
T47E8 002:174 JLINK_ReadReg(FPS12)  returns 0x00000000 (0000ms, 0195ms total)
T47E8 002:174 JLINK_ReadReg(FPS13)  returns 0x00000000 (0000ms, 0195ms total)
T47E8 002:174 JLINK_ReadReg(FPS14)  returns 0x00000000 (0000ms, 0195ms total)
T47E8 002:174 JLINK_ReadReg(FPS15)  returns 0x00000000 (0000ms, 0195ms total)
T47E8 002:174 JLINK_ReadReg(FPS16)  returns 0x00000000 (0000ms, 0195ms total)
T47E8 002:174 JLINK_ReadReg(FPS17)  returns 0x00000000 (0000ms, 0195ms total)
T47E8 002:174 JLINK_ReadReg(FPS18)  returns 0x00000000 (0000ms, 0195ms total)
T47E8 002:174 JLINK_ReadReg(FPS19)  returns 0x00000000 (0000ms, 0195ms total)
T47E8 002:174 JLINK_ReadReg(FPS20)  returns 0x00000000 (0000ms, 0195ms total)
T47E8 002:174 JLINK_ReadReg(FPS21)  returns 0x00000000 (0000ms, 0195ms total)
T47E8 002:174 JLINK_ReadReg(FPS22)  returns 0x00000000 (0000ms, 0195ms total)
T47E8 002:174 JLINK_ReadReg(FPS23)  returns 0x00000000 (0000ms, 0195ms total)
T47E8 002:174 JLINK_ReadReg(FPS24)  returns 0x00000000 (0000ms, 0195ms total)
T47E8 002:174 JLINK_ReadReg(FPS25)  returns 0x00000000 (0000ms, 0195ms total)
T47E8 002:174 JLINK_ReadReg(FPS26)  returns 0x00000000 (0000ms, 0195ms total)
T47E8 002:174 JLINK_ReadReg(FPS27)  returns 0x00000000 (0000ms, 0195ms total)
T47E8 002:174 JLINK_ReadReg(FPS28)  returns 0x00000000 (0000ms, 0195ms total)
T47E8 002:174 JLINK_ReadReg(FPS29)  returns 0x00000000 (0000ms, 0195ms total)
T47E8 002:174 JLINK_ReadReg(FPS30)  returns 0x00000000 (0000ms, 0195ms total)
T47E8 002:174 JLINK_ReadReg(FPS31)  returns 0x00000000 (0000ms, 0195ms total)
T1B58 002:175 JLINK_ReadMem (0x00000000, 0x0004 Bytes, ...) -- CPU_ReadMem(64 bytes @ 0x00000000) -- Updating C cache (64 bytes @ 0x00000000) -- Read from C cache (4 bytes @ 0x00000000) - Data: A8 40 00 20  returns 0x00 (0002ms, 0197ms total)
T1B58 002:178 JLINK_ReadMemU32(0xE0001004, 0x0001 Items, ...) -- CPU_ReadMem(4 bytes @ 0xE0001004) - Data: 0C 84 00 00  returns 0x01 (0001ms, 0198ms total)
T1B58 002:179 JLINK_ReadMem (0x20000000, 0x0001 Bytes, ...) -- CPU_ReadMem(64 bytes @ 0x20000000) -- Updating C cache (64 bytes @ 0x20000000) -- Read from C cache (1 bytes @ 0x20000000) - Data: 00  returns 0x00 (0002ms, 0200ms total)
T1B58 002:181 JLINK_ReadMem (0x20000007, 0x0001 Bytes, ...) -- Read from C cache (1 bytes @ 0x20000007) - Data: 00  returns 0x00 (0000ms, 0200ms total)
T1B58 002:181 JLINK_ReadMem (0x2000003C, 0x0004 Bytes, ...) -- Read from C cache (4 bytes @ 0x2000003C) - Data: 00 00 00 00  returns 0x00 (0000ms, 0200ms total)
T1B58 002:181 JLINK_ReadMem (0x20000001, 0x0001 Bytes, ...) -- Read from C cache (1 bytes @ 0x20000001) - Data: 00  returns 0x00 (0000ms, 0200ms total)
T1B58 002:181 JLINK_ReadMem (0x40008000, 0x0010 Bytes, ...) -- CPU_ReadMem(16 bytes @ 0x40008000) - Data: 00 00 00 00 00 00 00 00 00 00 00 00 00 00 00 00  returns 0x00 (0001ms, 0201ms total)
T1B58 002:182 JLINK_ReadMem (0x40008010, 0x0004 Bytes, ...) -- CPU_ReadMem(4 bytes @ 0x40008010) - Data: 00 00 00 00  returns 0x00 (0002ms, 0203ms total)
T1B58 002:184 JLINK_ReadMem (0x40008040, 0x0014 Bytes, ...) -- CPU_ReadMem(20 bytes @ 0x40008040) - Data: 00 00 00 00 00 00 00 00 00 00 00 00 00 00 00 00 ...  returns 0x00 (0001ms, 0204ms total)
T1B58 002:185 JLINK_ReadMem (0x40008054, 0x0004 Bytes, ...) -- CPU_ReadMem(4 bytes @ 0x40008054) - Data: 00 00 00 00  returns 0x00 (0001ms, 0205ms total)
T1B58 002:186 JLINK_ReadMem (0x40008140, 0x0014 Bytes, ...) -- CPU_ReadMem(20 bytes @ 0x40008140) - Data: 00 00 00 00 00 00 00 00 00 00 00 00 00 00 00 00 ...  returns 0x00 (0001ms, 0206ms total)
T1B58 002:187 JLINK_ReadMem (0x40008154, 0x0004 Bytes, ...) -- CPU_ReadMem(4 bytes @ 0x40008154) - Data: 00 00 00 00  returns 0x00 (0002ms, 0208ms total)
T1B58 002:189 JLINK_ReadMem (0x40008200, 0x0004 Bytes, ...) -- CPU_ReadMem(4 bytes @ 0x40008200) - Data: 00 00 00 00  returns 0x00 (0001ms, 0209ms total)
T1B58 002:190 JLINK_ReadMem (0x40008304, 0x0004 Bytes, ...) -- CPU_ReadMem(4 bytes @ 0x40008304) - Data: 00 00 00 00  returns 0x00 (0001ms, 0210ms total)
T1B58 002:191 JLINK_ReadMem (0x40008308, 0x0004 Bytes, ...) -- CPU_ReadMem(4 bytes @ 0x40008308) - Data: 00 00 00 00  returns 0x00 (0001ms, 0211ms total)
T1B58 002:192 JLINK_ReadMem (0x40008504, 0x0004 Bytes, ...) -- CPU_ReadMem(4 bytes @ 0x40008504) - Data: 00 00 00 00  returns 0x00 (0001ms, 0212ms total)
T1B58 002:193 JLINK_ReadMem (0x40008508, 0x0004 Bytes, ...) -- CPU_ReadMem(4 bytes @ 0x40008508) - Data: 00 00 00 00  returns 0x00 (0001ms, 0213ms total)
T1B58 002:194 JLINK_ReadMem (0x40008510, 0x0004 Bytes, ...) -- CPU_ReadMem(4 bytes @ 0x40008510) - Data: 04 00 00 00  returns 0x00 (0001ms, 0214ms total)
T1B58 002:195 JLINK_ReadMem (0x40008540, 0x0014 Bytes, ...) -- CPU_ReadMem(20 bytes @ 0x40008540) - Data: 00 00 00 00 00 00 00 00 00 00 00 00 00 00 00 00 ...  returns 0x00 (0002ms, 0216ms total)
T1B58 002:197 JLINK_ReadMem (0x40008554, 0x0004 Bytes, ...) -- CPU_ReadMem(4 bytes @ 0x40008554) - Data: 00 00 00 00  returns 0x00 (0001ms, 0217ms total)
T1B58 002:201 JLINK_ReadMem (0x00000C80, 0x003C Bytes, ...) -- CPU_ReadMem(64 bytes @ 0x00000C80) -- Updating C cache (64 bytes @ 0x00000C80) -- Read from C cache (60 bytes @ 0x00000C80) - Data: 00 24 00 F0 0F FA 04 46 00 BF 25 46 25 B1 00 BF ...  returns 0x00 (0001ms, 0218ms total)
T47E8 003:078 JLINK_Go() -- CPU_ReadMem(4 bytes @ 0xE0001000) -- CPU_WriteMem(4 bytes @ 0xE0002008) (0005ms, 0223ms total)
T47E8 003:183 JLINK_IsHalted()  returns FALSE (0001ms, 0224ms total)
T47E8 003:284 JLINK_IsHalted()  returns FALSE (0001ms, 0224ms total)
T47E8 003:385 JLINK_IsHalted()  returns FALSE (0001ms, 0224ms total)
T47E8 003:486 JLINK_IsHalted()  returns FALSE (0001ms, 0224ms total)
T47E8 003:587 JLINK_IsHalted()  returns FALSE (0001ms, 0224ms total)
T47E8 003:688 JLINK_IsHalted()  returns FALSE (0001ms, 0224ms total)
T47E8 003:791 JLINK_IsHalted()  returns FALSE (0004ms, 0227ms total)
T47E8 003:895 JLINK_IsHalted()  returns FALSE (0001ms, 0224ms total)
T47E8 003:996 JLINK_IsHalted()  returns FALSE (0001ms, 0224ms total)
T47E8 004:097 JLINK_IsHalted()  returns FALSE (0001ms, 0224ms total)
T47E8 004:198 JLINK_IsHalted()  returns FALSE (0000ms, 0223ms total)
T47E8 004:298 JLINK_IsHalted()  returns FALSE (0001ms, 0224ms total)
T47E8 004:399 JLINK_Halt()  returns 0x00 (0007ms, 0230ms total)
T47E8 004:406 JLINK_IsHalted()  returns TRUE (0000ms, 0230ms total)
T47E8 004:406 JLINK_IsHalted()  returns TRUE (0000ms, 0230ms total)
T47E8 004:406 JLINK_IsHalted()  returns TRUE (0000ms, 0230ms total)
T47E8 004:406 JLINK_ReadReg(R15 (PC))  returns 0x00000CCA (0001ms, 0231ms total)
T47E8 004:407 JLINK_ReadReg(XPSR)  returns 0x41000000 (0000ms, 0231ms total)
T47E8 004:407 JLINK_ReadMemU32(0xE000ED30, 0x0001 Items, ...) -- CPU_ReadMem(4 bytes @ 0xE000ED30) - Data: 01 00 00 00  returns 0x01 (0001ms, 0232ms total)
T47E8 004:408 JLINK_ReadMemU32(0xE0001028, 0x0001 Items, ...) -- CPU_ReadMem(4 bytes @ 0xE0001028) - Data: 00 00 00 00  returns 0x01 (0001ms, 0233ms total)
T47E8 004:409 JLINK_ReadMemU32(0xE0001038, 0x0001 Items, ...) -- CPU_ReadMem(4 bytes @ 0xE0001038) - Data: 00 02 00 00  returns 0x01 (0001ms, 0234ms total)
T47E8 004:410 JLINK_ReadMemU32(0xE0001048, 0x0001 Items, ...) -- CPU_ReadMem(4 bytes @ 0xE0001048) - Data: 00 00 00 00  returns 0x01 (0001ms, 0235ms total)
T47E8 004:411 JLINK_ReadMemU32(0xE0001058, 0x0001 Items, ...) -- CPU_ReadMem(4 bytes @ 0xE0001058) - Data: 00 00 00 00  returns 0x01 (0001ms, 0236ms total)
T47E8 004:412 JLINK_ReadReg(R0)  returns 0x00000000 (0000ms, 0236ms total)
T47E8 004:412 JLINK_ReadReg(R1)  returns 0x00000100 (0001ms, 0237ms total)
T47E8 004:413 JLINK_ReadReg(R2)  returns 0x01000002 (0000ms, 0237ms total)
T47E8 004:413 JLINK_ReadReg(R3)  returns 0x00000400 (0000ms, 0237ms total)
T47E8 004:413 JLINK_ReadReg(R4)  returns 0x00000000 (0000ms, 0237ms total)
T47E8 004:413 JLINK_ReadReg(R5)  returns 0x00000000 (0000ms, 0237ms total)
T47E8 004:413 JLINK_ReadReg(R6)  returns 0x00000000 (0000ms, 0237ms total)
T47E8 004:413 JLINK_ReadReg(R7)  returns 0x00000000 (0000ms, 0237ms total)
T47E8 004:413 JLINK_ReadReg(R8)  returns 0x00000000 (0000ms, 0237ms total)
T47E8 004:413 JLINK_ReadReg(R9)  returns 0x00000000 (0000ms, 0237ms total)
T47E8 004:413 JLINK_ReadReg(R10)  returns 0x00000000 (0000ms, 0237ms total)
T47E8 004:413 JLINK_ReadReg(R11)  returns 0x00000000 (0000ms, 0237ms total)
T47E8 004:413 JLINK_ReadReg(R12)  returns 0x00000000 (0000ms, 0237ms total)
T47E8 004:413 JLINK_ReadReg(R13 (SP))  returns 0x200040A8 (0000ms, 0237ms total)
T47E8 004:413 JLINK_ReadReg(R14)  returns 0x00001285 (0000ms, 0237ms total)
T47E8 004:413 JLINK_ReadReg(R15 (PC))  returns 0x00000CCA (0000ms, 0237ms total)
T47E8 004:413 JLINK_ReadReg(XPSR)  returns 0x41000000 (0000ms, 0237ms total)
T47E8 004:413 JLINK_ReadReg(MSP)  returns 0x200040A8 (0000ms, 0237ms total)
T47E8 004:413 JLINK_ReadReg(PSP)  returns 0x00000000 (0000ms, 0237ms total)
T47E8 004:413 JLINK_ReadReg(CFBP)  returns 0x00000000 (0000ms, 0237ms total)
T47E8 004:413 JLINK_ReadReg(FPSCR)  returns 0x00000000 (0012ms, 0249ms total)
T47E8 004:425 JLINK_ReadReg(FPS0)  returns 0x00000000 (0000ms, 0249ms total)
T47E8 004:425 JLINK_ReadReg(FPS1)  returns 0x00000000 (0000ms, 0249ms total)
T47E8 004:425 JLINK_ReadReg(FPS2)  returns 0x00000000 (0000ms, 0249ms total)
T47E8 004:425 JLINK_ReadReg(FPS3)  returns 0x00000000 (0000ms, 0249ms total)
T47E8 004:425 JLINK_ReadReg(FPS4)  returns 0x00000000 (0000ms, 0249ms total)
T47E8 004:425 JLINK_ReadReg(FPS5)  returns 0x00000000 (0000ms, 0249ms total)
T47E8 004:425 JLINK_ReadReg(FPS6)  returns 0x00000000 (0000ms, 0249ms total)
T47E8 004:425 JLINK_ReadReg(FPS7)  returns 0x00000000 (0000ms, 0249ms total)
T47E8 004:425 JLINK_ReadReg(FPS8)  returns 0x00000000 (0000ms, 0249ms total)
T47E8 004:425 JLINK_ReadReg(FPS9)  returns 0x00000000 (0000ms, 0249ms total)
T47E8 004:425 JLINK_ReadReg(FPS10)  returns 0x00000000 (0001ms, 0250ms total)
T47E8 004:426 JLINK_ReadReg(FPS11)  returns 0x00000000 (0000ms, 0250ms total)
T47E8 004:426 JLINK_ReadReg(FPS12)  returns 0x00000000 (0000ms, 0250ms total)
T47E8 004:426 JLINK_ReadReg(FPS13)  returns 0x00000000 (0000ms, 0250ms total)
T47E8 004:426 JLINK_ReadReg(FPS14)  returns 0x00000000 (0000ms, 0250ms total)
T47E8 004:426 JLINK_ReadReg(FPS15)  returns 0x00000000 (0000ms, 0250ms total)
T47E8 004:426 JLINK_ReadReg(FPS16)  returns 0x00000000 (0000ms, 0250ms total)
T47E8 004:426 JLINK_ReadReg(FPS17)  returns 0x00000000 (0000ms, 0250ms total)
T47E8 004:426 JLINK_ReadReg(FPS18)  returns 0x00000000 (0000ms, 0250ms total)
T47E8 004:426 JLINK_ReadReg(FPS19)  returns 0x00000000 (0000ms, 0250ms total)
T47E8 004:426 JLINK_ReadReg(FPS20)  returns 0x00000000 (0000ms, 0250ms total)
T47E8 004:426 JLINK_ReadReg(FPS21)  returns 0x00000000 (0000ms, 0250ms total)
T47E8 004:426 JLINK_ReadReg(FPS22)  returns 0x00000000 (0000ms, 0250ms total)
T47E8 004:426 JLINK_ReadReg(FPS23)  returns 0x00000000 (0000ms, 0250ms total)
T47E8 004:426 JLINK_ReadReg(FPS24)  returns 0x00000000 (0000ms, 0250ms total)
T47E8 004:426 JLINK_ReadReg(FPS25)  returns 0x00000000 (0000ms, 0250ms total)
T47E8 004:426 JLINK_ReadReg(FPS26)  returns 0x00000000 (0000ms, 0250ms total)
T47E8 004:426 JLINK_ReadReg(FPS27)  returns 0x00000000 (0000ms, 0250ms total)
T47E8 004:426 JLINK_ReadReg(FPS28)  returns 0x00000000 (0000ms, 0250ms total)
T47E8 004:426 JLINK_ReadReg(FPS29)  returns 0x00000000 (0000ms, 0250ms total)
T47E8 004:426 JLINK_ReadReg(FPS30)  returns 0x00000000 (0000ms, 0250ms total)
T47E8 004:426 JLINK_ReadReg(FPS31)  returns 0x00000000 (0001ms, 0251ms total)
T1B58 004:427 JLINK_ReadMem (0x00000000, 0x0004 Bytes, ...) -- CPU_ReadMem(64 bytes @ 0x00000000) -- Updating C cache (64 bytes @ 0x00000000) -- Read from C cache (4 bytes @ 0x00000000) - Data: A8 40 00 20  returns 0x00 (0002ms, 0253ms total)
T1B58 004:429 JLINK_ReadMemU32(0xE0001004, 0x0001 Items, ...) -- CPU_ReadMem(4 bytes @ 0xE0001004) - Data: 95 03 0B 05  returns 0x01 (0001ms, 0254ms total)
T1B58 004:430 JLINK_ReadMem (0x20000000, 0x0001 Bytes, ...) -- CPU_ReadMem(64 bytes @ 0x20000000) -- Updating C cache (64 bytes @ 0x20000000) -- Read from C cache (1 bytes @ 0x20000000) - Data: 00  returns 0x00 (0002ms, 0256ms total)
T1B58 004:432 JLINK_ReadMem (0x20000007, 0x0001 Bytes, ...) -- Read from C cache (1 bytes @ 0x20000007) - Data: 00  returns 0x00 (0000ms, 0256ms total)
T1B58 004:432 JLINK_ReadMem (0x2000003C, 0x0004 Bytes, ...) -- Read from C cache (4 bytes @ 0x2000003C) - Data: F5 13 00 00  returns 0x00 (0000ms, 0256ms total)
T1B58 004:432 JLINK_ReadMem (0x000013F5, 0x000B Bytes, ...) -- CPU_ReadMem(64 bytes @ 0x000013C0) -- Updating C cache (64 bytes @ 0x000013C0) -- Read from C cache (11 bytes @ 0x000013F5) - Data: E9 F0 41 04 46 0F 46 4B 49 08 68  returns 0x00 (0002ms, 0258ms total)
T1B58 004:434 JLINK_ReadMem (0x00001400, 0x0015 Bytes, ...) -- CPU_ReadMem(64 bytes @ 0x00001400) -- Updating C cache (64 bytes @ 0x00001400) -- Read from C cache (21 bytes @ 0x00001400) - Data: 4B 49 09 68 C1 40 01 F0 01 01 09 B1 01 20 00 E0 ...  returns 0x00 (0002ms, 0260ms total)
T1B58 004:438 JLINK_ReadMem (0x20000001, 0x0001 Bytes, ...) -- Read from C cache (1 bytes @ 0x20000001) - Data: 00  returns 0x00 (0000ms, 0260ms total)
T1B58 004:438 JLINK_ReadMem (0x40008000, 0x0010 Bytes, ...) -- CPU_ReadMem(16 bytes @ 0x40008000) - Data: 00 00 00 00 00 00 00 00 00 00 00 00 00 00 00 00  returns 0x00 (0002ms, 0262ms total)
T1B58 004:440 JLINK_ReadMem (0x40008010, 0x0004 Bytes, ...) -- CPU_ReadMem(4 bytes @ 0x40008010) - Data: 00 00 00 00  returns 0x00 (0001ms, 0263ms total)
T1B58 004:441 JLINK_ReadMem (0x40008040, 0x0014 Bytes, ...) -- CPU_ReadMem(20 bytes @ 0x40008040) - Data: 00 00 00 00 00 00 00 00 00 00 00 00 00 00 00 00 ...  returns 0x00 (0001ms, 0264ms total)
T1B58 004:442 JLINK_ReadMem (0x40008054, 0x0004 Bytes, ...) -- CPU_ReadMem(4 bytes @ 0x40008054) - Data: 00 00 00 00  returns 0x00 (0002ms, 0266ms total)
T1B58 004:444 JLINK_ReadMem (0x40008140, 0x0014 Bytes, ...) -- CPU_ReadMem(20 bytes @ 0x40008140) - Data: 00 00 00 00 00 00 00 00 00 00 00 00 00 00 00 00 ...  returns 0x00 (0001ms, 0267ms total)
T1B58 004:445 JLINK_ReadMem (0x40008154, 0x0004 Bytes, ...) -- CPU_ReadMem(4 bytes @ 0x40008154) - Data: 00 00 00 00  returns 0x00 (0004ms, 0271ms total)
T1B58 004:449 JLINK_ReadMem (0x40008200, 0x0004 Bytes, ...) -- CPU_ReadMem(4 bytes @ 0x40008200) - Data: 08 00 00 00  returns 0x00 (0003ms, 0274ms total)
T1B58 004:453 JLINK_ReadMem (0x40008304, 0x0004 Bytes, ...) -- CPU_ReadMem(4 bytes @ 0x40008304) - Data: 00 00 0F 00  returns 0x00 (0001ms, 0275ms total)
T1B58 004:454 JLINK_ReadMem (0x40008308, 0x0004 Bytes, ...) -- CPU_ReadMem(4 bytes @ 0x40008308) - Data: 00 00 0F 00  returns 0x00 (0001ms, 0276ms total)
T1B58 004:455 JLINK_ReadMem (0x40008504, 0x0004 Bytes, ...) -- CPU_ReadMem(4 bytes @ 0x40008504) - Data: 00 00 00 00  returns 0x00 (0001ms, 0277ms total)
T1B58 004:456 JLINK_ReadMem (0x40008508, 0x0004 Bytes, ...) -- CPU_ReadMem(4 bytes @ 0x40008508) - Data: 03 00 00 00  returns 0x00 (0001ms, 0278ms total)
T1B58 004:457 JLINK_ReadMem (0x40008510, 0x0004 Bytes, ...) -- CPU_ReadMem(4 bytes @ 0x40008510) - Data: 04 00 00 00  returns 0x00 (0002ms, 0280ms total)
T1B58 004:459 JLINK_ReadMem (0x40008540, 0x0014 Bytes, ...) -- CPU_ReadMem(20 bytes @ 0x40008540) - Data: 19 00 00 00 26 02 00 00 3F 02 00 00 4C 04 00 00 ...  returns 0x00 (0001ms, 0281ms total)
T1B58 004:460 JLINK_ReadMem (0x40008554, 0x0004 Bytes, ...) -- CPU_ReadMem(4 bytes @ 0x40008554) - Data: 00 00 00 00  returns 0x00 (0001ms, 0282ms total)
T1B58 004:509 JLINK_ReadMem (0x00000CCA, 0x0002 Bytes, ...) -- CPU_ReadMem(64 bytes @ 0x00000CC0) -- Updating C cache (64 bytes @ 0x00000CC0) -- Read from C cache (2 bytes @ 0x00000CCA) - Data: 40 BF  returns 0x00 (0002ms, 0284ms total)
T1B58 004:511 JLINK_ReadMem (0x00000CCC, 0x003C Bytes, ...) -- CPU_ReadMem(64 bytes @ 0x00000D00) -- Updating C cache (64 bytes @ 0x00000D00) -- Read from C cache (60 bytes @ 0x00000CCC) - Data: 20 BF FB E7 F0 B5 0B 30 15 4D 20 F0 07 01 00 24 ...  returns 0x00 (0002ms, 0286ms total)
T47E8 006:163 JLINK_Go() -- CPU_ReadMem(4 bytes @ 0xE0001000) (0003ms, 0289ms total)
T47E8 006:267 JLINK_IsHalted()  returns FALSE (0001ms, 0291ms total)
T47E8 006:368 JLINK_IsHalted()  returns FALSE (0000ms, 0290ms total)
T47E8 006:469 JLINK_IsHalted()  returns FALSE (0001ms, 0291ms total)
T47E8 006:570 JLINK_IsHalted()  returns FALSE (0001ms, 0291ms total)
T47E8 006:671 JLINK_IsHalted()  returns FALSE (0001ms, 0291ms total)
T47E8 006:772 JLINK_IsHalted()  returns FALSE (0001ms, 0291ms total)
T47E8 006:873 JLINK_IsHalted()  returns FALSE (0001ms, 0291ms total)
T47E8 006:974 JLINK_IsHalted()  returns FALSE (0001ms, 0291ms total)
T47E8 007:075 JLINK_IsHalted()  returns FALSE (0005ms, 0295ms total)
T47E8 007:183 JLINK_IsHalted()  returns FALSE (0002ms, 0292ms total)
T47E8 007:290 JLINK_IsHalted()  returns FALSE (0001ms, 0291ms total)
T47E8 007:395 JLINK_IsHalted()  returns FALSE (0004ms, 0294ms total)
T47E8 007:503 JLINK_IsHalted()  returns FALSE (0005ms, 0295ms total)
T47E8 007:608 JLINK_IsHalted()  returns FALSE (0001ms, 0291ms total)
T47E8 007:712 JLINK_IsHalted()  returns FALSE (0001ms, 0291ms total)
T47E8 007:814 JLINK_IsHalted()  returns FALSE (0001ms, 0291ms total)
T47E8 007:915 JLINK_Halt()  returns 0x00 (0006ms, 0296ms total)
T47E8 007:922 JLINK_IsHalted()  returns TRUE (0000ms, 0296ms total)
T47E8 007:922 JLINK_IsHalted()  returns TRUE (0000ms, 0296ms total)
T47E8 007:922 JLINK_IsHalted()  returns TRUE (0000ms, 0296ms total)
T47E8 007:922 JLINK_ReadReg(R15 (PC))  returns 0x00000CCA (0000ms, 0296ms total)
T47E8 007:922 JLINK_ReadReg(XPSR)  returns 0x41000000 (0000ms, 0296ms total)
T47E8 007:922 JLINK_ReadMemU32(0xE000ED30, 0x0001 Items, ...) -- CPU_ReadMem(4 bytes @ 0xE000ED30) - Data: 01 00 00 00  returns 0x01 (0000ms, 0296ms total)
T47E8 007:922 JLINK_ReadMemU32(0xE0001028, 0x0001 Items, ...) -- CPU_ReadMem(4 bytes @ 0xE0001028) - Data: 00 00 00 00  returns 0x01 (0001ms, 0297ms total)
T47E8 007:923 JLINK_ReadMemU32(0xE0001038, 0x0001 Items, ...) -- CPU_ReadMem(4 bytes @ 0xE0001038) - Data: 00 02 00 00  returns 0x01 (0001ms, 0298ms total)
T47E8 007:924 JLINK_ReadMemU32(0xE0001048, 0x0001 Items, ...) -- CPU_ReadMem(4 bytes @ 0xE0001048) - Data: 00 00 00 00  returns 0x01 (0001ms, 0299ms total)
T47E8 007:925 JLINK_ReadMemU32(0xE0001058, 0x0001 Items, ...) -- CPU_ReadMem(4 bytes @ 0xE0001058) - Data: 00 00 00 00  returns 0x01 (0001ms, 0300ms total)
T47E8 007:926 JLINK_ReadReg(R0)  returns 0x00000000 (0000ms, 0300ms total)
T47E8 007:926 JLINK_ReadReg(R1)  returns 0x00000100 (0000ms, 0300ms total)
T47E8 007:926 JLINK_ReadReg(R2)  returns 0x01000002 (0000ms, 0300ms total)
T47E8 007:926 JLINK_ReadReg(R3)  returns 0x00000400 (0000ms, 0300ms total)
T47E8 007:926 JLINK_ReadReg(R4)  returns 0x00000000 (0000ms, 0300ms total)
T47E8 007:926 JLINK_ReadReg(R5)  returns 0x00000000 (0000ms, 0300ms total)
T47E8 007:926 JLINK_ReadReg(R6)  returns 0x00000000 (0000ms, 0300ms total)
T47E8 007:926 JLINK_ReadReg(R7)  returns 0x00000000 (0000ms, 0300ms total)
T47E8 007:926 JLINK_ReadReg(R8)  returns 0x00000000 (0000ms, 0300ms total)
T47E8 007:926 JLINK_ReadReg(R9)  returns 0x00000000 (0000ms, 0300ms total)
T47E8 007:926 JLINK_ReadReg(R10)  returns 0x00000000 (0000ms, 0300ms total)
T47E8 007:926 JLINK_ReadReg(R11)  returns 0x00000000 (0000ms, 0300ms total)
T47E8 007:926 JLINK_ReadReg(R12)  returns 0x00000000 (0000ms, 0300ms total)
T47E8 007:926 JLINK_ReadReg(R13 (SP))  returns 0x200040A8 (0000ms, 0300ms total)
T47E8 007:926 JLINK_ReadReg(R14)  returns 0x00001285 (0000ms, 0300ms total)
T47E8 007:926 JLINK_ReadReg(R15 (PC))  returns 0x00000CCA (0000ms, 0300ms total)
T47E8 007:926 JLINK_ReadReg(XPSR)  returns 0x41000000 (0000ms, 0300ms total)
T47E8 007:926 JLINK_ReadReg(MSP)  returns 0x200040A8 (0000ms, 0300ms total)
T47E8 007:926 JLINK_ReadReg(PSP)  returns 0x00000000 (0000ms, 0300ms total)
T47E8 007:926 JLINK_ReadReg(CFBP)  returns 0x00000000 (0000ms, 0300ms total)
T47E8 007:926 JLINK_ReadReg(FPSCR)  returns 0x00000000 (0011ms, 0311ms total)
T47E8 007:937 JLINK_ReadReg(FPS0)  returns 0x00000000 (0000ms, 0311ms total)
T47E8 007:937 JLINK_ReadReg(FPS1)  returns 0x00000000 (0000ms, 0311ms total)
T47E8 007:937 JLINK_ReadReg(FPS2)  returns 0x00000000 (0000ms, 0311ms total)
T47E8 007:937 JLINK_ReadReg(FPS3)  returns 0x00000000 (0000ms, 0311ms total)
T47E8 007:937 JLINK_ReadReg(FPS4)  returns 0x00000000 (0000ms, 0311ms total)
T47E8 007:937 JLINK_ReadReg(FPS5)  returns 0x00000000 (0000ms, 0311ms total)
T47E8 007:937 JLINK_ReadReg(FPS6)  returns 0x00000000 (0000ms, 0311ms total)
T47E8 007:937 JLINK_ReadReg(FPS7)  returns 0x00000000 (0000ms, 0311ms total)
T47E8 007:937 JLINK_ReadReg(FPS8)  returns 0x00000000 (0000ms, 0311ms total)
T47E8 007:937 JLINK_ReadReg(FPS9)  returns 0x00000000 (0000ms, 0311ms total)
T47E8 007:937 JLINK_ReadReg(FPS10)  returns 0x00000000 (0000ms, 0311ms total)
T47E8 007:937 JLINK_ReadReg(FPS11)  returns 0x00000000 (0000ms, 0311ms total)
T47E8 007:937 JLINK_ReadReg(FPS12)  returns 0x00000000 (0000ms, 0311ms total)
T47E8 007:937 JLINK_ReadReg(FPS13)  returns 0x00000000 (0000ms, 0311ms total)
T47E8 007:937 JLINK_ReadReg(FPS14)  returns 0x00000000 (0000ms, 0311ms total)
T47E8 007:937 JLINK_ReadReg(FPS15)  returns 0x00000000 (0000ms, 0311ms total)
T47E8 007:937 JLINK_ReadReg(FPS16)  returns 0x00000000 (0000ms, 0311ms total)
T47E8 007:937 JLINK_ReadReg(FPS17)  returns 0x00000000 (0000ms, 0311ms total)
T47E8 007:937 JLINK_ReadReg(FPS18)  returns 0x00000000 (0000ms, 0311ms total)
T47E8 007:937 JLINK_ReadReg(FPS19)  returns 0x00000000 (0000ms, 0311ms total)
T47E8 007:937 JLINK_ReadReg(FPS20)  returns 0x00000000 (0000ms, 0311ms total)
T47E8 007:937 JLINK_ReadReg(FPS21)  returns 0x00000000 (0000ms, 0311ms total)
T47E8 007:937 JLINK_ReadReg(FPS22)  returns 0x00000000 (0000ms, 0311ms total)
T47E8 007:937 JLINK_ReadReg(FPS23)  returns 0x00000000 (0000ms, 0311ms total)
T47E8 007:937 JLINK_ReadReg(FPS24)  returns 0x00000000 (0000ms, 0311ms total)
T47E8 007:937 JLINK_ReadReg(FPS25)  returns 0x00000000 (0000ms, 0311ms total)
T47E8 007:937 JLINK_ReadReg(FPS26)  returns 0x00000000 (0000ms, 0311ms total)
T47E8 007:937 JLINK_ReadReg(FPS27)  returns 0x00000000 (0000ms, 0311ms total)
T47E8 007:937 JLINK_ReadReg(FPS28)  returns 0x00000000 (0000ms, 0311ms total)
T47E8 007:937 JLINK_ReadReg(FPS29)  returns 0x00000000 (0000ms, 0311ms total)
T47E8 007:937 JLINK_ReadReg(FPS30)  returns 0x00000000 (0001ms, 0312ms total)
T47E8 007:938 JLINK_ReadReg(FPS31)  returns 0x00000000 (0000ms, 0312ms total)
T1B58 007:938 JLINK_ReadMem (0x00000000, 0x0004 Bytes, ...) -- CPU_ReadMem(64 bytes @ 0x00000000) -- Updating C cache (64 bytes @ 0x00000000) -- Read from C cache (4 bytes @ 0x00000000) - Data: A8 40 00 20  returns 0x00 (0003ms, 0315ms total)
T1B58 007:941 JLINK_ReadMemU32(0xE0001004, 0x0001 Items, ...) -- CPU_ReadMem(4 bytes @ 0xE0001004) - Data: EC DF BD 0B  returns 0x01 (0001ms, 0316ms total)
T1B58 007:942 JLINK_ReadMem (0x20000000, 0x0001 Bytes, ...) -- CPU_ReadMem(64 bytes @ 0x20000000) -- Updating C cache (64 bytes @ 0x20000000) -- Read from C cache (1 bytes @ 0x20000000) - Data: 00  returns 0x00 (0002ms, 0318ms total)
T1B58 007:944 JLINK_ReadMem (0x20000007, 0x0001 Bytes, ...) -- Read from C cache (1 bytes @ 0x20000007) - Data: 00  returns 0x00 (0000ms, 0318ms total)
T1B58 007:944 JLINK_ReadMem (0x2000003C, 0x0004 Bytes, ...) -- Read from C cache (4 bytes @ 0x2000003C) - Data: F5 13 00 00  returns 0x00 (0000ms, 0318ms total)
T1B58 007:944 JLINK_ReadMem (0x000013F5, 0x000B Bytes, ...) -- CPU_ReadMem(64 bytes @ 0x000013C0) -- Updating C cache (64 bytes @ 0x000013C0) -- Read from C cache (11 bytes @ 0x000013F5) - Data: E9 F0 41 04 46 0F 46 4B 49 08 68  returns 0x00 (0002ms, 0320ms total)
T1B58 007:946 JLINK_ReadMem (0x00001400, 0x0015 Bytes, ...) -- CPU_ReadMem(64 bytes @ 0x00001400) -- Updating C cache (64 bytes @ 0x00001400) -- Read from C cache (21 bytes @ 0x00001400) - Data: 4B 49 09 68 C1 40 01 F0 01 01 09 B1 01 20 00 E0 ...  returns 0x00 (0001ms, 0321ms total)
T1B58 007:947 JLINK_ReadMem (0x20000001, 0x0001 Bytes, ...) -- Read from C cache (1 bytes @ 0x20000001) - Data: 00  returns 0x00 (0000ms, 0321ms total)
T1B58 007:947 JLINK_ReadMem (0x40008000, 0x0010 Bytes, ...) -- CPU_ReadMem(16 bytes @ 0x40008000) - Data: 00 00 00 00 00 00 00 00 00 00 00 00 00 00 00 00  returns 0x00 (0001ms, 0322ms total)
T1B58 007:948 JLINK_ReadMem (0x40008010, 0x0004 Bytes, ...) -- CPU_ReadMem(4 bytes @ 0x40008010) - Data: 00 00 00 00  returns 0x00 (0001ms, 0323ms total)
T1B58 007:949 JLINK_ReadMem (0x40008040, 0x0014 Bytes, ...) -- CPU_ReadMem(20 bytes @ 0x40008040) - Data: 00 00 00 00 00 00 00 00 00 00 00 00 00 00 00 00 ...  returns 0x00 (0001ms, 0324ms total)
T1B58 007:950 JLINK_ReadMem (0x40008054, 0x0004 Bytes, ...) -- CPU_ReadMem(4 bytes @ 0x40008054) - Data: 00 00 00 00  returns 0x00 (0001ms, 0325ms total)
T1B58 007:951 JLINK_ReadMem (0x40008140, 0x0014 Bytes, ...) -- CPU_ReadMem(20 bytes @ 0x40008140) - Data: 00 00 00 00 00 00 00 00 00 00 00 00 00 00 00 00 ...  returns 0x00 (0001ms, 0326ms total)
T1B58 007:952 JLINK_ReadMem (0x40008154, 0x0004 Bytes, ...) -- CPU_ReadMem(4 bytes @ 0x40008154) - Data: 00 00 00 00  returns 0x00 (0001ms, 0327ms total)
T1B58 007:953 JLINK_ReadMem (0x40008200, 0x0004 Bytes, ...) -- CPU_ReadMem(4 bytes @ 0x40008200) - Data: 08 00 00 00  returns 0x00 (0001ms, 0328ms total)
T1B58 007:954 JLINK_ReadMem (0x40008304, 0x0004 Bytes, ...) -- CPU_ReadMem(4 bytes @ 0x40008304) - Data: 00 00 0F 00  returns 0x00 (0000ms, 0328ms total)
T1B58 007:954 JLINK_ReadMem (0x40008308, 0x0004 Bytes, ...) -- CPU_ReadMem(4 bytes @ 0x40008308) - Data: 00 00 0F 00  returns 0x00 (0001ms, 0329ms total)
T1B58 007:955 JLINK_ReadMem (0x40008504, 0x0004 Bytes, ...) -- CPU_ReadMem(4 bytes @ 0x40008504) - Data: 00 00 00 00  returns 0x00 (0001ms, 0330ms total)
T1B58 007:956 JLINK_ReadMem (0x40008508, 0x0004 Bytes, ...) -- CPU_ReadMem(4 bytes @ 0x40008508) - Data: 03 00 00 00  returns 0x00 (0001ms, 0331ms total)
T1B58 007:957 JLINK_ReadMem (0x40008510, 0x0004 Bytes, ...) -- CPU_ReadMem(4 bytes @ 0x40008510) - Data: 04 00 00 00  returns 0x00 (0000ms, 0331ms total)
T1B58 007:957 JLINK_ReadMem (0x40008540, 0x0014 Bytes, ...) -- CPU_ReadMem(20 bytes @ 0x40008540) - Data: 19 00 00 00 26 02 00 00 3F 02 00 00 4C 04 00 00 ...  returns 0x00 (0001ms, 0332ms total)
T1B58 007:958 JLINK_ReadMem (0x40008554, 0x0004 Bytes, ...) -- CPU_ReadMem(4 bytes @ 0x40008554) - Data: 00 00 00 00  returns 0x00 (0001ms, 0333ms total)
T47E8 009:010 JLINK_Go() -- CPU_ReadMem(4 bytes @ 0xE0001000) (0002ms, 0335ms total)
T47E8 009:112 JLINK_IsHalted()  returns FALSE (0000ms, 0335ms total)
T47E8 009:212 JLINK_IsHalted()  returns FALSE (0000ms, 0335ms total)
T47E8 009:312 JLINK_IsHalted()  returns FALSE (0000ms, 0335ms total)
T47E8 009:412 JLINK_IsHalted()  returns FALSE (0000ms, 0335ms total)
T47E8 009:512 JLINK_IsHalted()  returns FALSE (0000ms, 0335ms total)
T47E8 009:612 JLINK_IsHalted()  returns FALSE (0000ms, 0335ms total)
T47E8 009:712 JLINK_IsHalted()  returns FALSE (0000ms, 0335ms total)
T47E8 009:812 JLINK_IsHalted()  returns FALSE (0000ms, 0335ms total)
T47E8 009:912 JLINK_IsHalted()  returns FALSE (0000ms, 0335ms total)
T47E8 010:012 JLINK_IsHalted()  returns FALSE (0001ms, 0336ms total)
T47E8 010:113 JLINK_IsHalted()  returns FALSE (0000ms, 0335ms total)
T47E8 010:213 JLINK_IsHalted()  returns FALSE (0000ms, 0335ms total)
T47E8 010:313 JLINK_IsHalted()  returns FALSE (0000ms, 0335ms total)
T47E8 010:413 JLINK_IsHalted()  returns FALSE (0000ms, 0335ms total)
T47E8 010:514 JLINK_IsHalted()  returns FALSE (0000ms, 0335ms total)
T47E8 010:614 JLINK_Halt()  returns 0x00 (0006ms, 0341ms total)
T47E8 010:620 JLINK_IsHalted()  returns TRUE (0001ms, 0342ms total)
T47E8 010:621 JLINK_IsHalted()  returns TRUE (0000ms, 0341ms total)
T47E8 010:621 JLINK_IsHalted()  returns TRUE (0000ms, 0341ms total)
T47E8 010:621 JLINK_ReadReg(R15 (PC))  returns 0x00000CCA (0000ms, 0341ms total)
T47E8 010:621 JLINK_ReadReg(XPSR)  returns 0x41000000 (0000ms, 0341ms total)
T47E8 010:621 JLINK_ReadMemU32(0xE000ED30, 0x0001 Items, ...) -- CPU_ReadMem(4 bytes @ 0xE000ED30) - Data: 01 00 00 00  returns 0x01 (0000ms, 0341ms total)
T47E8 010:621 JLINK_ReadMemU32(0xE0001028, 0x0001 Items, ...) -- CPU_ReadMem(4 bytes @ 0xE0001028) - Data: 00 00 00 00  returns 0x01 (0001ms, 0342ms total)
T47E8 010:622 JLINK_ReadMemU32(0xE0001038, 0x0001 Items, ...) -- CPU_ReadMem(4 bytes @ 0xE0001038) - Data: 00 02 00 00  returns 0x01 (0001ms, 0343ms total)
T47E8 010:623 JLINK_ReadMemU32(0xE0001048, 0x0001 Items, ...) -- CPU_ReadMem(4 bytes @ 0xE0001048) - Data: 00 00 00 00  returns 0x01 (0001ms, 0344ms total)
T47E8 010:624 JLINK_ReadMemU32(0xE0001058, 0x0001 Items, ...) -- CPU_ReadMem(4 bytes @ 0xE0001058) - Data: 00 00 00 00  returns 0x01 (0000ms, 0344ms total)
T47E8 010:624 JLINK_ReadReg(R0)  returns 0x00000000 (0000ms, 0344ms total)
T47E8 010:624 JLINK_ReadReg(R1)  returns 0x00000100 (0000ms, 0344ms total)
T47E8 010:624 JLINK_ReadReg(R2)  returns 0x01000002 (0000ms, 0344ms total)
T47E8 010:624 JLINK_ReadReg(R3)  returns 0x00000400 (0000ms, 0344ms total)
T47E8 010:624 JLINK_ReadReg(R4)  returns 0x00000000 (0000ms, 0344ms total)
T47E8 010:624 JLINK_ReadReg(R5)  returns 0x00000000 (0000ms, 0344ms total)
T47E8 010:624 JLINK_ReadReg(R6)  returns 0x00000000 (0000ms, 0344ms total)
T47E8 010:624 JLINK_ReadReg(R7)  returns 0x00000000 (0001ms, 0345ms total)
T47E8 010:625 JLINK_ReadReg(R8)  returns 0x00000000 (0000ms, 0345ms total)
T47E8 010:625 JLINK_ReadReg(R9)  returns 0x00000000 (0000ms, 0345ms total)
T47E8 010:625 JLINK_ReadReg(R10)  returns 0x00000000 (0000ms, 0345ms total)
T47E8 010:625 JLINK_ReadReg(R11)  returns 0x00000000 (0000ms, 0345ms total)
T47E8 010:625 JLINK_ReadReg(R12)  returns 0x00000000 (0000ms, 0345ms total)
T47E8 010:625 JLINK_ReadReg(R13 (SP))  returns 0x200040A8 (0000ms, 0345ms total)
T47E8 010:625 JLINK_ReadReg(R14)  returns 0x00001285 (0000ms, 0345ms total)
T47E8 010:625 JLINK_ReadReg(R15 (PC))  returns 0x00000CCA (0000ms, 0345ms total)
T47E8 010:625 JLINK_ReadReg(XPSR)  returns 0x41000000 (0000ms, 0345ms total)
T47E8 010:625 JLINK_ReadReg(MSP)  returns 0x200040A8 (0000ms, 0345ms total)
T47E8 010:625 JLINK_ReadReg(PSP)  returns 0x00000000 (0000ms, 0345ms total)
T47E8 010:625 JLINK_ReadReg(CFBP)  returns 0x00000000 (0000ms, 0345ms total)
T47E8 010:625 JLINK_ReadReg(FPSCR)  returns 0x00000000 (0010ms, 0355ms total)
T47E8 010:635 JLINK_ReadReg(FPS0)  returns 0x00000000 (0000ms, 0355ms total)
T47E8 010:635 JLINK_ReadReg(FPS1)  returns 0x00000000 (0000ms, 0355ms total)
T47E8 010:635 JLINK_ReadReg(FPS2)  returns 0x00000000 (0000ms, 0355ms total)
T47E8 010:635 JLINK_ReadReg(FPS3)  returns 0x00000000 (0000ms, 0355ms total)
T47E8 010:635 JLINK_ReadReg(FPS4)  returns 0x00000000 (0000ms, 0355ms total)
T47E8 010:635 JLINK_ReadReg(FPS5)  returns 0x00000000 (0000ms, 0355ms total)
T47E8 010:635 JLINK_ReadReg(FPS6)  returns 0x00000000 (0000ms, 0355ms total)
T47E8 010:635 JLINK_ReadReg(FPS7)  returns 0x00000000 (0000ms, 0355ms total)
T47E8 010:635 JLINK_ReadReg(FPS8)  returns 0x00000000 (0000ms, 0355ms total)
T47E8 010:635 JLINK_ReadReg(FPS9)  returns 0x00000000 (0000ms, 0355ms total)
T47E8 010:635 JLINK_ReadReg(FPS10)  returns 0x00000000 (0000ms, 0355ms total)
T47E8 010:635 JLINK_ReadReg(FPS11)  returns 0x00000000 (0000ms, 0355ms total)
T47E8 010:635 JLINK_ReadReg(FPS12)  returns 0x00000000 (0000ms, 0355ms total)
T47E8 010:636 JLINK_ReadReg(FPS13)  returns 0x00000000 (0000ms, 0355ms total)
T47E8 010:636 JLINK_ReadReg(FPS14)  returns 0x00000000 (0000ms, 0355ms total)
T47E8 010:636 JLINK_ReadReg(FPS15)  returns 0x00000000 (0000ms, 0355ms total)
T47E8 010:636 JLINK_ReadReg(FPS16)  returns 0x00000000 (0000ms, 0355ms total)
T47E8 010:636 JLINK_ReadReg(FPS17)  returns 0x00000000 (0000ms, 0355ms total)
T47E8 010:636 JLINK_ReadReg(FPS18)  returns 0x00000000 (0000ms, 0355ms total)
T47E8 010:636 JLINK_ReadReg(FPS19)  returns 0x00000000 (0000ms, 0355ms total)
T47E8 010:636 JLINK_ReadReg(FPS20)  returns 0x00000000 (0000ms, 0355ms total)
T47E8 010:636 JLINK_ReadReg(FPS21)  returns 0x00000000 (0000ms, 0355ms total)
T47E8 010:636 JLINK_ReadReg(FPS22)  returns 0x00000000 (0000ms, 0355ms total)
T47E8 010:636 JLINK_ReadReg(FPS23)  returns 0x00000000 (0000ms, 0355ms total)
T47E8 010:636 JLINK_ReadReg(FPS24)  returns 0x00000000 (0000ms, 0355ms total)
T47E8 010:636 JLINK_ReadReg(FPS25)  returns 0x00000000 (0000ms, 0355ms total)
T47E8 010:636 JLINK_ReadReg(FPS26)  returns 0x00000000 (0000ms, 0355ms total)
T47E8 010:636 JLINK_ReadReg(FPS27)  returns 0x00000000 (0000ms, 0355ms total)
T47E8 010:636 JLINK_ReadReg(FPS28)  returns 0x00000000 (0000ms, 0355ms total)
T47E8 010:636 JLINK_ReadReg(FPS29)  returns 0x00000000 (0000ms, 0355ms total)
T47E8 010:636 JLINK_ReadReg(FPS30)  returns 0x00000000 (0000ms, 0355ms total)
T47E8 010:636 JLINK_ReadReg(FPS31)  returns 0x00000000 (0000ms, 0355ms total)
T1B58 010:636 JLINK_ReadMem (0x00000000, 0x0004 Bytes, ...) -- CPU_ReadMem(64 bytes @ 0x00000000) -- Updating C cache (64 bytes @ 0x00000000) -- Read from C cache (4 bytes @ 0x00000000) - Data: A8 40 00 20  returns 0x00 (0002ms, 0357ms total)
T1B58 010:638 JLINK_ReadMemU32(0xE0001004, 0x0001 Items, ...) -- CPU_ReadMem(4 bytes @ 0xE0001004) - Data: C7 BE DF 11  returns 0x01 (0000ms, 0357ms total)
